01 04 0b b9 00 05 e3 c8
01 01 00 01 00 03 2d cb
01 04 0b b9 00 05 e3 c8
01 01 00 01 00 03 2d cb
01 04 0b b9 00 05 e3 c8
01 01 00 01 00 03 2d cb
01 04 0b b9 00 05 e3 c8
01 01 00 01 00 03 2d cb
01 04 0b b9 00 05 e3 c8
01 01 00 01 00 03 2d cb
01 04 0b b9 00 05 e3 c8
01 01 00 01 00 03 2d cb
01 04 0b b9 00 05 e3 c8
01 01 00 01 00 03 2d cb
01 04 0b b9 00 05 e3 c8
01 01 00 01 00 03 2d cb
01 04 0b b9 00 05 e3 c8
01 01 00 01 00 03 2d cb
01 04 0b b9 00 05 e3 c8
01 01 00 01 00 03 2d cb
01 04 0b b9 00 05 e3 c8
01 01 00 01 00 03 2d cb
01 04 0b b9 00 05 e3 c8
01 01 00 01 00 03 2d cb
01 04 0b b9 00 05 e3 c8
01 01 00 01 00 03 2d cb
01 04 0b b9 00 05 e3 c8
01 01 00 01 00 03 2d cb
01 04 0b b9 00 05 e3 c8
01 01 00 01 00 03 2d cb
01 04 0b b9 00 05 e3 c8
01 01 00 01 00 03 2d cb
01 04 0b b9 00 05 e3 c8
01 01 00 01 00 03 2d cb
01 04 0b b9 00 05 e3 c8
01 01 00 01 00 03 2d cb
01 04 0b b9 00 05 e3 c8
01 01 00 01 00 03 2d cb
01 04 0b b9 00 05 e3 c8
01 01 00 01 00 03 2d cb
01 04 0b b9 00 05 e3 c8
01 01 00 01 00 03 2d cb
01 04 0b b9 00 05 e3 c8
01 01 00 01 00 03 2d cb
01 04 0b b9 00 05 e3 c8
01 01 00 01 00 03 2d cb
01 04 0b b9 00 05 e3 c8
01 01 00 01 00 03 2d cb
01 04 0b b9 00 05 e3 c8
01 01 00 01 00 03 2d cb
01 04 0b b9 00 05 e3 c8
01 01 00 01 00 03 2d cb
01 04 0b b9 00 05 e3 c8
01 01 00 01 00 03 2d cb
01 04 0b b9 00 05 e3 c8
01 01 00 01 00 03 2d cb
01 04 0b b9 00 05 e3 c8
01 01 00 01 00 03 2d cb
01 04 0b b9 00 05 e3 c8
01 01 00 01 00 03 2d cb
01 04 0b b9 00 05 e3 c8
01 01 00 01 00 03 2d cb
01 04 0b b9 00 05 e3 c8
01 01 00 01 00 03 2d cb
01 04 0b b9 00 05 e3 c8
01 01 00 01 00 03 2d cb
01 04 0b b9 00 05 e3 c8
01 01 00 01 00 03 2d cb
01 04 0b b9 00 05 e3 c8
01 01 00 01 00 03 2d cb
01 04 0b b9 00 05 e3 c8
01 01 00 01 00 03 2d cb
01 04 0b b9 00 05 e3 c8 

01 05 00 01 ff 00 dd fa

01 01 00 01 00 03 2d cb
01 04 0b b9 00 05 e3 c8
01 01 00 01 00 03 2d cb
01 04 0b b9 00 05 e3 c8
01 01 00 01 00 03 2d cb
01 04 0b b9 00 05 e3 c8
01 01 00 01 00 03 2d cb
01 04 0b b9 00 05 e3 c8
01 01 00 01 00 03 2d cb
01 04 0b b9 00 05 e3 c8
01 01 00 01 00 03 2d cb
01 04 0b b9 00 05 e3 c8
01 01 00 01 00 03 2d cb
01 04 0b b9 00 05 e3 c8
01 01 00 01 00 03 2d cb
01 04 0b b9 00 05 e3 c8
01 01 00 01 00 03 2d cb
01 04 0b b9 00 05 e3 c8
01 01 00 01 00 03 2d cb
01 04 0b b9 00 05 e3 c8
01 01 00 01 00 03 2d cb
01 04 0b b9 00 05 e3 c8
01 01 00 01 00 03 2d cb
01 04 0b b9 00 05 e3 c8
01 01 00 01 00 03 2d cb
01 04 0b b9 00 05 e3 c8
01 01 00 01 00 03 2d cb
01 04 0b b9 00 05 e3 c8
01 01 00 01 00 03 2d cb
01 04 0b b9 00 05 e3 c8
01 01 00 01 00 03 2d cb
01 04 0b b9 00 05 e3 c8
01 01 00 01 00 03 2d cb
01 04 0b b9 00 05 e3 c8
01 01 00 01 00 03 2d cb
01 04 0b b9 00 05 e3 c8
01 01 00 01 00 03 2d cb
01 04 0b b9 00 05 e3 c8
01 01 00 01 00 03 2d cb
01 04 0b b9 00 05 e3 c8
01 01 00 01 00 03 2d cb
01 04 0b b9 00 05 e3 c8
01 01 00 01 00 03 2d cb
01 04 0b b9 00 05 e3 c8
01 01 00 01 00 03 2d cb
01 04 0b b9 00 05 e3 c8
01 01 00 01 00 03 2d cb
01 04 0b b9 00 05 e3 c8
01 01 00 01 00 03 2d cb
01 04 0b b9 00 05 e3 c8
01 01 00 01 00 03 2d cb
01 04 0b b9 00 05 e3 c8
01 01 00 01 00 03 2d cb
01 04 0b b9 00 05 e3 c8
01 01 00 01 00 03 2d cb
01 04 0b b9 00 05 e3 c8
01 01 00 01 00 03 2d cb
01 04 0b b9 00 05 e3 c8
01 01 00 01 00 03 2d cb
01 04 0b b9 00 05 e3 c8
01 01 00 01 00 03 2d cb
01 04 0b b9 00 05 e3 c8
01 01 00 01 00 03 2d cb
01 04 0b b9 00 05 e3 c8
01 01 00 01 00 03 2d cb
01 04 0b b9 00 05 e3 c8
01 01 00 01 00 03 2d cb
01 04 0b b9 00 05 e3 c8
01 01 00 01 00 03 2d cb
01 04 0b b9 00 05 e3 c8
01 01 00 01 00 03 2d cb
01 04 0b b9 00 05 e3 c8
01 01 00 01 00 03 2d cb
01 04 0b b9 00 05 e3 c8
01 01 00 01 00 03 2d cb
01 04 0b b9 00 05 e3 c8
01 01 00 01 00 03 2d cb
01 04 0b b9 00 05 e3 c8
01 01 00 01 00 03 2d cb
01 04 0b b9 00 05 e3 c8
01 01 00 01 00 03 2d cb
01 04 0b b9 00 05 e3 c8
01 01 00 01 00 03 2d cb
01 04 0b b9 00 05 e3 c8
01 01 00 01 00 03 2d cb
01 04 0b b9 00 05 e3 c8
01 01 00 01 00 03 2d cb
01 04 0b b9 00 05 e3 c8
01 01 00 01 00 03 2d cb
01 04 0b b9 00 05 e3 c8
01 01 00 01 00 03 2d cb
01 04 0b b9 00 05 e3 c8
01 01 00 01 00 03 2d cb
01 04 0b b9 00 05 e3 c8
01 01 00 01 00 03 2d cb
01 04 0b b9 00 05 e3 c8
01 01 00 01 00 03 2d cb
01 04 0b b9 00 05 e3 c8
01 01 00 01 00 03 2d cb
01 04 0b b9 00 05 e3 c8 

01 05 00 01 00 00 9c 0a

01 01 00 01 00 03 2d cb
01 04 0b b9 00 05 e3 c8
01 01 00 01 00 03 2d cb
01 04 0b b9 00 05 e3 c8
01 01 00 01 00 03 2d cb
01 04 0b b9 00 05 e3 c8
01 01 00 01 00 03 2d cb
01 04 0b b9 00 05 e3 c8
01 01 00 01 00 03 2d cb
01 04 0b b9 00 05 e3 c8
01 01 00 01 00 03 2d cb
01 04 0b b9 00 05 e3 c8
01 01 00 01 00 03 2d cb
01 04 0b b9 00 05 e3 c8
01 01 00 01 00 03 2d cb
01 04 0b b9 00 05 e3 c8
01 01 00 01 00 03 2d cb
01 04 0b b9 00 05 e3 c8
01 01 00 01 00 03 2d cb
01 04 0b b9 00 05 e3 c8
01 01 00 01 00 03 2d cb
01 04 0b b9 00 05 e3 c8
01 01 00 01 00 03 2d cb
01 04 0b b9 00 05 e3 c8
01 01 00 01 00 03 2d cb
01 04 0b b9 00 05 e3 c8
01 01 00 01 00 03 2d cb
01 04 0b b9 00 05 e3 c8
01 01 00 01 00 03 2d cb
01 04 0b b9 00 05 e3 c8
01 01 00 01 00 03 2d cb
01 04 0b b9 00 05 e3 c8
01 01 00 01 00 03 2d cb
01 04 0b b9 00 05 e3 c8
01 01 00 01 00 03 2d cb
01 04 0b b9 00 05 e3 c8
01 01 00 01 00 03 2d cb
01 04 0b b9 00 05 e3 c8
01 01 00 01 00 03 2d cb
01 04 0b b9 00 05 e3 c8
01 01 00 01 00 03 2d cb
01 04 0b b9 00 05 e3 c8
01 01 00 01 00 03 2d cb
01 04 0b b9 00 05 e3 c8
01 01 00 01 00 03 2d cb
01 04 0b b9 00 05 e3 c8
01 01 00 01 00 03 2d cb
01 04 0b b9 00 05 e3 c8
01 01 00 01 00 03 2d cb
01 04 0b b9 00 05 e3 c8
01 01 00 01 00 03 2d cb
01 04 0b b9 00 05 e3 c8
01 01 00 01 00 03 2d cb
01 04 0b b9 00 05 e3 c8
01 01 00 01 00 03 2d cb
01 04 0b b9 00 05 e3 c8
01 01 00 01 00 03 2d cb
01 04 0b b9 00 05 e3 c8
01 01 00 01 00 03 2d cb
01 04 0b b9 00 05 e3 c8
01 01 00 01 00 03 2d cb
01 04 0b b9 00 05 e3 c8
01 01 00 01 00 03 2d cb
01 04 0b b9 00 05 e3 c8
01 01 00 01 00 03 2d cb
01 04 0b b9 00 05 e3 c8
01 01 00 01 00 03 2d cb
01 04 0b b9 00 05 e3 c8
01 01 00 01 00 03 2d cb
01 04 0b b9 00 05 e3 c8
01 01 00 01 00 03 2d cb
01 04 0b b9 00 05 e3 c8
01 01 00 01 00 03 2d cb
01 04 0b b9 00 05 e3 c8
01 01 00 01 00 03 2d cb
01 04 0b b9 00 05 e3 c8
01 01 00 01 00 03 2d cb
01 04 0b b9 00 05 e3 c8
01 01 00 01 00 03 2d cb
01 04 0b b9 00 05 e3 c8
01 01 00 01 00 03 2d cb
01 04 0b b9 00 05 e3 c8
01 01 00 01 00 03 2d cb
01 04 0b b9 00 05 e3 c8
01 01 00 01 00 03 2d cb
01 04 0b b9 00 05 e3 c8
01 01 00 01 00 03 2d cb
01 04 0b b9 00 05 e3 c8
01 01 00 01 00 03 2d cb
01 04 0b b9 00 05 e3 c8
01 01 00 01 00 03 2d cb
01 04 0b b9 00 05 e3 c8
01 01 00 01 00 03 2d cb
01 04 0b b9 00 05 e3 c8
01 01 00 01 00 03 2d cb
01 04 0b b9 00 05 e3 c8
01 01 00 01 00 03 2d cb
01 04 0b b9 00 05 e3 c8
01 01 00 01 00 03 2d cb
01 04 0b b9 00 05 e3 c8
01 01 00 01 00 03 2d cb
01 04 0b b9 00 05 e3 c8
01 01 00 01 00 03 2d cb
01 04 0b b9 00 05 e3 c8
01 01 00 01 00 03 2d cb
01 04 0b b9 00 05 e3 c8
01 01 00 01 00 03 2d cb
01 04 0b b9 00 05 e3 c8
01 01 00 01 00 03 2d cb
01 04 0b b9 00 05 e3 c8
01 01 00 01 00 03 2d cb
01 04 0b b9 00 05 e3 c8
01 01 00 01 00 03 2d cb
01 04 0b b9 00 05 e3 c8
01 01 00 01 00 03 2d cb
01 04 0b b9 00 05 e3 c8
01 01 00 01 00 03 2d cb
01 04 0b b9 00 05 e3 c8
01 01 00 01 00 03 2d cb
01 04 0b b9 00 05 e3 c8
01 01 00 01 00 03 2d cb
01 04 0b b9 00 05 e3 c8
01 01 00 01 00 03 2d cb
01 04 0b b9 00 05 e3 c8
01 01 00 01 00 03 2d cb
01 04 0b b9 00 05 e3 c8
01 01 00 01 00 03 2d cb
01 04 0b b9 00 05 e3 c8
01 01 00 01 00 03 2d cb
01 04 0b b9 00 05 e3 c8
01 01 00 01 00 03 2d cb
01 04 0b b9 00 05 e3 c8
01 01 00 01 00 03 2d cb
01 04 0b b9 00 05 e3 c8
01 01 00 01 00 03 2d cb
01 04 0b b9 00 05 e3 c8
01 01 00 01 00 03 2d cb
01 04 0b b9 00 05 e3 c8
01 01 00 01 00 03 2d cb
01 04 0b b9 00 05 e3 c8
01 01 00 01 00 03 2d cb
01 04 0b b9 00 05 e3 c8
01 01 00 01 00 03 2d cb