02 04 0b b9 00 05 e3 fb
02 01 00 01 00 03 2d f8
02 04 0b b9 00 05 e3 fb
02 01 00 01 00 03 2d f8
02 04 0b b9 00 05 e3 fb
02 01 00 01 00 03 2d f8
02 04 0b b9 00 05 e3 fb
02 01 00 01 00 03 2d f8
02 04 0b b9 00 05 e3 fb
02 01 00 01 00 03 2d f8
02 04 0b b9 00 05 e3 fb
02 01 00 01 00 03 2d f8
02 04 0b b9 00 05 e3 fb
02 01 00 01 00 03 2d f8
02 04 0b b9 00 05 e3 fb
02 01 00 01 00 03 2d f8
02 04 0b b9 00 05 e3 fb
02 01 00 01 00 03 2d f8
02 04 0b b9 00 05 e3 fb
02 01 00 01 00 03 2d f8
02 04 0b b9 00 05 e3 fb
02 01 00 01 00 03 2d f8
02 04 0b b9 00 05 e3 fb
02 01 00 01 00 03 2d f8
02 04 0b b9 00 05 e3 fb
02 01 00 01 00 03 2d f8
02 04 0b b9 00 05 e3 fb
02 01 00 01 00 03 2d f8
02 04 0b b9 00 05 e3 fb
02 01 00 01 00 03 2d f8
02 04 0b b9 00 05 e3 fb
02 01 00 01 00 03 2d f8
02 04 0b b9 00 05 e3 fb
02 01 00 01 00 03 2d f8
02 04 0b b9 00 05 e3 fb
02 01 00 01 00 03 2d f8
02 04 0b b9 00 05 e3 fb
02 01 00 01 00 03 2d f8
02 04 0b b9 00 05 e3 fb
02 01 00 01 00 03 2d f8
02 04 0b b9 00 05 e3 fb
02 01 00 01 00 03 2d f8
02 04 0b b9 00 05 e3 fb
02 01 00 01 00 03 2d f8
02 04 0b b9 00 05 e3 fb
02 01 00 01 00 03 2d f8
02 04 0b b9 00 05 e3 fb
02 01 00 01 00 03 2d f8
02 04 0b b9 00 05 e3 fb
02 01 00 01 00 03 2d f8
02 04 0b b9 00 05 e3 fb
02 01 00 01 00 03 2d f8
02 04 0b b9 00 05 e3 fb
02 01 00 01 00 03 2d f8
02 04 0b b9 00 05 e3 fb
02 01 00 01 00 03 2d f8
02 04 0b b9 00 05 e3 fb
02 01 00 01 00 03 2d f8
02 04 0b b9 00 05 e3 fb
02 01 00 01 00 03 2d f8
02 04 0b b9 00 05 e3 fb
02 01 00 01 00 03 2d f8
02 04 0b b9 00 05 e3 fb
02 01 00 01 00 03 2d f8
02 04 0b b9 00 05 e3 fb
02 01 00 01 00 03 2d f8
02 04 0b b9 00 05 e3 fb
02 01 00 01 00 03 2d f8
02 04 0b b9 00 05 e3 fb
02 01 00 01 00 03 2d f8
02 04 0b b9 00 05 e3 fb
02 01 00 01 00 03 2d f8
02 04 0b b9 00 05 e3 fb
02 01 00 01 00 03 2d f8
02 04 0b b9 00 05 e3 fb
02 01 00 01 00 03 2d f8
02 04 0b b9 00 05 e3 fb
02 01 00 01 00 03 2d f8
02 04 0b b9 00 05 e3 fb
02 01 00 01 00 03 2d f8
02 04 0b b9 00 05 e3 fb
02 01 00 01 00 03 2d f8
02 04 0b b9 00 05 e3 fb 

02 05 00 01 ff 00 dd c9 

02 01 00 01 00 03 2d f8
02 04 0b b9 00 05 e3 fb
02 01 00 01 00 03 2d f8
02 04 0b b9 00 05 e3 fb
02 01 00 01 00 03 2d f8
02 04 0b b9 00 05 e3 fb
02 01 00 01 00 03 2d f8
02 04 0b b9 00 05 e3 fb
02 01 00 01 00 03 2d f8
02 04 0b b9 00 05 e3 fb
02 01 00 01 00 03 2d f8
02 04 0b b9 00 05 e3 fb
02 01 00 01 00 03 2d f8
02 04 0b b9 00 05 e3 fb
02 01 00 01 00 03 2d f8
02 04 0b b9 00 05 e3 fb
02 01 00 01 00 03 2d f8
02 04 0b b9 00 05 e3 fb
02 01 00 01 00 03 2d f8
02 04 0b b9 00 05 e3 fb
02 01 00 01 00 03 2d f8
02 04 0b b9 00 05 e3 fb
02 01 00 01 00 03 2d f8
02 04 0b b9 00 05 e3 fb
02 01 00 01 00 03 2d f8
02 04 0b b9 00 05 e3 fb
02 01 00 01 00 03 2d f8
02 04 0b b9 00 05 e3 fb
02 01 00 01 00 03 2d f8
02 04 0b b9 00 05 e3 fb
02 01 00 01 00 03 2d f8
02 04 0b b9 00 05 e3 fb
02 01 00 01 00 03 2d f8
02 04 0b b9 00 05 e3 fb
02 01 00 01 00 03 2d f8
02 04 0b b9 00 05 e3 fb
02 01 00 01 00 03 2d f8
02 04 0b b9 00 05 e3 fb
02 01 00 01 00 03 2d f8
02 04 0b b9 00 05 e3 fb
02 01 00 01 00 03 2d f8
02 04 0b b9 00 05 e3 fb
02 01 00 01 00 03 2d f8
02 04 0b b9 00 05 e3 fb
02 01 00 01 00 03 2d f8
02 04 0b b9 00 05 e3 fb
02 01 00 01 00 03 2d f8
02 04 0b b9 00 05 e3 fb
02 01 00 01 00 03 2d f8
02 04 0b b9 00 05 e3 fb
02 01 00 01 00 03 2d f8
02 04 0b b9 00 05 e3 fb
02 01 00 01 00 03 2d f8
02 04 0b b9 00 05 e3 fb
02 01 00 01 00 03 2d f8
02 04 0b b9 00 05 e3 fb
02 01 00 01 00 03 2d f8
02 04 0b b9 00 05 e3 fb
02 01 00 01 00 03 2d f8
02 04 0b b9 00 05 e3 fb
02 01 00 01 00 03 2d f8
02 04 0b b9 00 05 e3 fb
02 01 00 01 00 03 2d f8
02 04 0b b9 00 05 e3 fb
02 01 00 01 00 03 2d f8
02 04 0b b9 00 05 e3 fb
02 01 00 01 00 03 2d f8
02 04 0b b9 00 05 e3 fb
02 01 00 01 00 03 2d f8
02 04 0b b9 00 05 e3 fb
02 01 00 01 00 03 2d f8
02 04 0b b9 00 05 e3 fb
02 01 00 01 00 03 2d f8
02 04 0b b9 00 05 e3 fb
02 01 00 01 00 03 2d f8
02 04 0b b9 00 05 e3 fb
02 01 00 01 00 03 2d f8
02 04 0b b9 00 05 e3 fb
02 01 00 01 00 03 2d f8
02 04 0b b9 00 05 e3 fb
02 01 00 01 00 03 2d f8
02 04 0b b9 00 05 e3 fb
02 01 00 01 00 03 2d f8
02 04 0b b9 00 05 e3 fb
02 01 00 01 00 03 2d f8
02 04 0b b9 00 05 e3 fb
02 01 00 01 00 03 2d f8
02 04 0b b9 00 05 e3 fb
02 01 00 01 00 03 2d f8
02 04 0b b9 00 05 e3 fb
02 01 00 01 00 03 2d f8
02 04 0b b9 00 05 e3 fb
02 01 00 01 00 03 2d f8
02 04 0b b9 00 05 e3 fb
02 01 00 01 00 03 2d f8
02 04 0b b9 00 05 e3 fb
02 01 00 01 00 03 2d f8
02 04 0b b9 00 05 e3 fb
02 01 00 01 00 03 2d f8
02 04 0b b9 00 05 e3 fb
02 01 00 01 00 03 2d f8
02 04 0b b9 00 05 e3 fb
02 01 00 01 00 03 2d f8
02 04 0b b9 00 05 e3 fb
02 01 00 01 00 03 2d f8
02 04 0b b9 00 05 e3 fb
02 01 00 01 00 03 2d f8
02 04 0b b9 00 05 e3 fb
02 01 00 01 00 03 2d f8
02 04 0b b9 00 05 e3 fb
02 01 00 01 00 03 2d f8
02 04 0b b9 00 05 e3 fb 

02 05 00 01 00 00 9c 39 

02 01 00 01 00 03 2d f8
02 04 0b b9 00 05 e3 fb
02 01 00 01 00 03 2d f8
02 04 0b b9 00 05 e3 fb
02 01 00 01 00 03 2d f8
02 04 0b b9 00 05 e3 fb
02 01 00 01 00 03 2d f8
02 04 0b b9 00 05 e3 fb
02 01 00 01 00 03 2d f8
02 04 0b b9 00 05 e3 fb
02 01 00 01 00 03 2d f8
02 04 0b b9 00 05 e3 fb
02 01 00 01 00 03 2d f8
02 04 0b b9 00 05 e3 fb
02 01 00 01 00 03 2d f8
02 04 0b b9 00 05 e3 fb
02 01 00 01 00 03 2d f8
02 04 0b b9 00 05 e3 fb
02 01 00 01 00 03 2d f8
02 04 0b b9 00 05 e3 fb
02 01 00 01 00 03 2d f8
02 04 0b b9 00 05 e3 fb
02 01 00 01 00 03 2d f8
02 04 0b b9 00 05 e3 fb
02 01 00 01 00 03 2d f8
02 04 0b b9 00 05 e3 fb
02 01 00 01 00 03 2d f8
02 04 0b b9 00 05 e3 fb
02 01 00 01 00 03 2d f8
02 04 0b b9 00 05 e3 fb
02 01 00 01 00 03 2d f8
02 04 0b b9 00 05 e3 fb
02 01 00 01 00 03 2d f8
02 04 0b b9 00 05 e3 fb
02 01 00 01 00 03 2d f8
02 04 0b b9 00 05 e3 fb
02 01 00 01 00 03 2d f8
02 04 0b b9 00 05 e3 fb
02 01 00 01 00 03 2d f8
02 04 0b b9 00 05 e3 fb
02 01 00 01 00 03 2d f8
02 04 0b b9 00 05 e3 fb
02 01 00 01 00 03 2d f8
02 04 0b b9 00 05 e3 fb
02 01 00 01 00 03 2d f8
02 04 0b b9 00 05 e3 fb
02 01 00 01 00 03 2d f8
02 04 0b b9 00 05 e3 fb
02 01 00 01 00 03 2d f8
02 04 0b b9 00 05 e3 fb
02 01 00 01 00 03 2d f8
02 04 0b b9 00 05 e3 fb
02 01 00 01 00 03 2d f8
02 04 0b b9 00 05 e3 fb
02 01 00 01 00 03 2d f8
02 04 0b b9 00 05 e3 fb
02 01 00 01 00 03 2d f8
02 04 0b b9 00 05 e3 fb
02 01 00 01 00 03 2d f8
02 04 0b b9 00 05 e3 fb
02 01 00 01 00 03 2d f8
02 04 0b b9 00 05 e3 fb
02 01 00 01 00 03 2d f8
02 04 0b b9 00 05 e3 fb
02 01 00 01 00 03 2d f8
02 04 0b b9 00 05 e3 fb
02 01 00 01 00 03 2d f8
02 04 0b b9 00 05 e3 fb
02 01 00 01 00 03 2d f8
02 04 0b b9 00 05 e3 fb
02 01 00 01 00 03 2d f8
02 04 0b b9 00 05 e3 fb
02 01 00 01 00 03 2d f8
02 04 0b b9 00 05 e3 fb
02 01 00 01 00 03 2d f8
02 04 0b b9 00 05 e3 fb
02 01 00 01 00 03 2d f8
02 04 0b b9 00 05 e3 fb
02 01 00 01 00 03 2d f8
02 04 0b b9 00 05 e3 fb
02 01 00 01 00 03 2d f8
02 04 0b b9 00 05 e3 fb
02 01 00 01 00 03 2d f8
02 04 0b b9 00 05 e3 fb
02 01 00 01 00 03 2d f8
02 04 0b b9 00 05 e3 fb
02 01 00 01 00 03 2d f8
02 04 0b b9 00 05 e3 fb
02 01 00 01 00 03 2d f8
02 04 0b b9 00 05 e3 fb
02 01 00 01 00 03 2d f8
02 04 0b b9 00 05 e3 fb
02 01 00 01 00 03 2d f8
02 04 0b b9 00 05 e3 fb
02 01 00 01 00 03 2d f8
02 04 0b b9 00 05 e3 fb
02 01 00 01 00 03 2d f8
02 04 0b b9 00 05 e3 fb
02 01 00 01 00 03 2d f8
02 04 0b b9 00 05 e3 fb
02 01 00 01 00 03 2d f8
02 04 0b b9 00 05 e3 fb
02 01 00 01 00 03 2d f8
02 04 0b b9 00 05 e3 fb
02 01 00 01 00 03 2d f8
02 04 0b b9 00 05 e3 fb
02 01 00 01 00 03 2d f8
02 04 0b b9 00 05 e3 fb
02 01 00 01 00 03 2d f8
02 04 0b b9 00 05 e3 fb
02 01 00 01 00 03 2d f8
02 04 0b b9 00 05 e3 fb
02 01 00 01 00 03 2d f8
02 04 0b b9 00 05 e3 fb
02 01 00 01 00 03 2d f8
02 04 0b b9 00 05 e3 fb
02 01 00 01 00 03 2d f8
02 04 0b b9 00 05 e3 fb
02 01 00 01 00 03 2d f8
02 04 0b b9 00 05 e3 fb
02 01 00 01 00 03 2d f8
02 04 0b b9 00 05 e3 fb
02 01 00 01 00 03 2d f8
02 04 0b b9 00 05 e3 fb
02 01 00 01 00 03 2d f8
02 04 0b b9 00 05 e3 fb
02 01 00 01 00 03 2d f8
02 04 0b b9 00 05 e3 fb
02 01 00 01 00 03 2d f8
02 04 0b b9 00 05 e3 fb
02 01 00 01 00 03 2d f8
02 04 0b b9 00 05 e3 fb
02 01 00 01 00 03 2d f8
02 04 0b b9 00 05 e3 fb
02 01 00 01 00 03 2d f8
02 04 0b b9 00 05 e3 fb
02 01 00 01 00 03 2d f8
02 04 0b b9 00 05 e3 fb
02 01 00 01 00 03 2d f8
02 04 0b b9 00 05 e3 fb
02 01 00 01 00 03 2d f8
02 04 0b b9 00 05 e3 fb
02 01 00 01 00 03 2d f8
02 04 0b b9 00 05 e3 fb
02 01 00 01 00 03 2d f8
02 04 0b b9 00 05 e3 fb
02 01 00 01 00 03 2d f8